!! NE71083
! IDSS=20 40 120 MA (MIN TYP MAX)
! Vp=-0.5 -1.1 -3.5 V (MIN TYP MAX)
! gm=20 50 100 mS (MIN TYP MAX)
! @ VDS=3V  IDS=10MA
# GHZ S MA R 50
! SCATTERING PARAMETERS: (3 port)
2   0.9796  -11.7416  0.0687    83.0503  0.1352  76.0401
    1.1972  164.5718  0.8631    -7.6301  1.3145  -8.9230
    1.2009  -5.6939   0.1439    18.8225  0.3391  167.6166

4   0.9555  -23.3806  0.1235    79.1445  0.2765   68.8723
    1.1828  147.9365  0.8572   -14.9001  1.2427  -19.1416
    1.1525  -12.4629  0.1784    33.7485  0.3119  151.3346

6   0.9152  -33.8813  0.1805    72.8422  0.3860   61.0266
    1.1850  134.1392  0.8372   -21.7635  1.1787  -27.2672
    1.1185  -17.7099  0.2183    39.1943  0.3098  139.2428

8   0.8955  -41.9915  0.2279    69.7867  0.4623   56.4307
    1.1862  121.7327  0.8136   -28.7086  1.1003  -34.1749
    1.0422  -23.1506  0.2728    40.4315  0.2859  125.4780

10  0.8008  -54.8968   0.2882   61.7462  0.5688   44.8712
    1.1229  107.9211   0.7652  -35.4082  0.9548  -40.8898
    0.9768  -25.0310   0.3057   38.3087  0.2563  119.1745

12  0.7603  -64.8491   0.3317   57.4607  0.6445   39.3378
    1.1387   95.9288   0.7368  -42.2737  0.8564  -48.0565
    0.9104  -29.2227   0.3507   38.0060  0.2392  107.2317

14  0.7394  -69.8084   0.3659   56.3193  0.6673   35.7033
    1.1552   92.0920   0.7433  -46.6017  0.8123  -49.1366
    0.9118  -30.3342   0.3708   39.4462  0.2365  108.0609

16  0.6957  -80.8662   0.4027   53.0717  0.7434   29.4047
    1.1691   77.2247   0.7209  -53.6128  0.6418  -60.7247
    0.7769  -35.6862   0.4194   38.0299  0.1986   78.7993

18  0.6373  -95.1648   0.4529   48.3014  0.8122   21.4176
    1.1876   63.3444   0.7000  -62.5152  0.4634  -71.8755
    0.6762  -39.1227   0.4703   36.9766  0.1750   55.2569
